Freq.	V(n003)/V(n005)
1.00000000000000e+06	(2.11617862123564e+01dB,1.78138459064507e+02°)
1.00695555005672e+06	(2.11617325584961e+01dB,1.78125507975099e+02°)
1.01395947979003e+06	(2.11616781563412e+01dB,1.78112467024965e+02°)
1.02101212570719e+06	(2.11616229954724e+01dB,1.78099335591689e+02°)
1.02811382665607e+06	(2.11615670653072e+01dB,1.78086113047831e+02°)
1.03526492384138e+06	(2.11615103551378e+01dB,1.78072798763201e+02°)
1.04246576084112e+06	(2.11614528540891e+01dB,1.78059392102529e+02°)
1.04971668362307e+06	(2.11613945511459e+01dB,1.78045892425420e+02°)
1.05701804056138e+06	(2.11613354351398e+01dB,1.78032299089429e+02°)
1.06437018245336e+06	(2.11612754947324e+01dB,1.78018611444618e+02°)
1.07177346253629e+06	(2.11612147184461e+01dB,1.78004828838159e+02°)
1.07922823650443e+06	(2.11611530946364e+01dB,1.77990950614315e+02°)
1.08673486252606e+06	(2.11610906115006e+01dB,1.77976976110534e+02°)
1.09429370126074e+06	(2.11610272570608e+01dB,1.77962904660523e+02°)
1.10190511587661e+06	(2.11609630191873e+01dB,1.77948735593437e+02°)
1.10956947206785e+06	(2.11608978855749e+01dB,1.77934468234624e+02°)
1.11728713807222e+06	(2.11608318437354e+01dB,1.77920101902507e+02°)
1.12505848468881e+06	(2.11607648810338e+01dB,1.77905635913957e+02°)
1.13288388529580e+06	(2.11606969846333e+01dB,1.77891069578860e+02°)
1.14076371586843e+06	(2.11606281415410e+01dB,1.77876402203941e+02°)
1.14869835499704e+06	(2.11605583385646e+01dB,1.77861633089653e+02°)
1.15668818390529e+06	(2.11604875623325e+01dB,1.77846761532458e+02°)
1.16473358646846e+06	(2.11604157993024e+01dB,1.77831786824795e+02°)
1.17283494923188e+06	(2.11603430357253e+01dB,1.77816708253507e+02°)
1.18099266142953e+06	(2.11602692576756e+01dB,1.77801525100577e+02°)
1.18920711500272e+06	(2.11601944510194e+01dB,1.77786236642330e+02°)
1.19747870461893e+06	(2.11601186014303e+01dB,1.77770842150945e+02°)
1.20580782769076e+06	(2.11600416944028e+01dB,1.77755340895186e+02°)
1.21419488439505e+06	(2.11599637152058e+01dB,1.77739732136521e+02°)
1.22264027769207e+06	(2.11598846489084e+01dB,1.77724015132174e+02°)
1.23114441334492e+06	(2.11598044803744e+01dB,1.77708189132769e+02°)
1.23970769993899e+06	(2.11597231942726e+01dB,1.77692253388486e+02°)
1.24833054890161e+06	(2.11596407750283e+01dB,1.77676207138984e+02°)
1.25701337452183e+06	(2.11595572068838e+01dB,1.77660049622629e+02°)
1.26575659397028e+06	(2.11594724738337e+01dB,1.77643780069522e+02°)
1.27456062731927e+06	(2.11593865596685e+01dB,1.77627397707636e+02°)
1.28342589756291e+06	(2.11592994479557e+01dB,1.77610901758147e+02°)
1.29235283063750e+06	(2.11592111220146e+01dB,1.77594291435409e+02°)
1.30134185544194e+06	(2.11591215649515e+01dB,1.77577565951544e+02°)
1.31039340385837e+06	(2.11590307596352e+01dB,1.77560724511007e+02°)
1.31950791077290e+06	(2.11589386886908e+01dB,1.77543766313641e+02°)
1.32868581409652e+06	(2.11588453345149e+01dB,1.77526690555411e+02°)
1.33792755478612e+06	(2.11587506792334e+01dB,1.77509496422968e+02°)
1.34723357686569e+06	(2.11586547047584e+01dB,1.77492183101333e+02°)
1.35660432744768e+06	(2.11585573927261e+01dB,1.77474749767686e+02°)
1.36604025675440e+06	(2.11584587245323e+01dB,1.77457195595963e+02°)
1.37554181813975e+06	(2.11583586813018e+01dB,1.77439519750643e+02°)
1.38510946811093e+06	(2.11582572439206e+01dB,1.77421721395979e+02°)
1.39474366635041e+06	(2.11581543929793e+01dB,1.77403799685154e+02°)
1.40444487573800e+06	(2.11580501088104e+01dB,1.77385753767962e+02°)
1.41421356237310e+06	(2.11579443714947e+01dB,1.77367582789999e+02°)
1.42405019559708e+06	(2.11578371608062e+01dB,1.77349285888004e+02°)
1.43395524801583e+06	(2.11577284562568e+01dB,1.77330862195213e+02°)
1.44392919552250e+06	(2.11576182370664e+01dB,1.77312310838246e+02°)
1.45397251732032e+06	(2.11575064821827e+01dB,1.77293630938606e+02°)
1.46408569594563e+06	(2.11573931702354e+01dB,1.77274821609557e+02°)
1.47426921729111e+06	(2.11572782795775e+01dB,1.77255881960721e+02°)
1.48452357062906e+06	(2.11571617882582e+01dB,1.77236811095722e+02°)
1.49484924863494e+06	(2.11570436740184e+01dB,1.77217608109829e+02°)
1.50524674741107e+06	(2.11569239143056e+01dB,1.77198272096102e+02°)
1.51571656651040e+06	(2.11568024862273e+01dB,1.77178802136858e+02°)
1.52625920896057e+06	(2.11566793666006e+01dB,1.77159197312122e+02°)
1.53687518128802e+06	(2.11565545319071e+01dB,1.77139456694191e+02°)
1.54756499354240e+06	(2.11564279582980e+01dB,1.77119579346817e+02°)
1.55832915932101e+06	(2.11562996216265e+01dB,1.77099564333664e+02°)
1.56916819579351e+06	(2.11561694973609e+01dB,1.77079410704375e+02°)
1.58008262372676e+06	(2.11560375606796e+01dB,1.77059117509195e+02°)
1.59107296750985e+06	(2.11559037863806e+01dB,1.77038683787360e+02°)
1.60213975517925e+06	(2.11557681489409e+01dB,1.77018108573996e+02°)
1.61328351844426e+06	(2.11556306224739e+01dB,1.76997390897770e+02°)
1.62450479271248e+06	(2.11554911807099e+01dB,1.76976529776994e+02°)
1.63580411711557e+06	(2.11553497970559e+01dB,1.76955524228839e+02°)
1.64718203453516e+06	(2.11552064445363e+01dB,1.76934373262351e+02°)
1.65863909162889e+06	(2.11550610958019e+01dB,1.76913075878415e+02°)
1.67017583885675e+06	(2.11549137231146e+01dB,1.76891631071256e+02°)
1.68179283050744e+06	(2.11547642983682e+01dB,1.76870037829941e+02°)
1.69349062472506e+06	(2.11546127930621e+01dB,1.76848295136022e+02°)
1.70526978353592e+06	(2.11544591783044e+01dB,1.76826401965043e+02°)
1.71713087287552e+06	(2.11543034247972e+01dB,1.76804357283407e+02°)
1.72907446261574e+06	(2.11541455028387e+01dB,1.76782160052200e+02°)
1.74110112659226e+06	(2.11539853823327e+01dB,1.76759809227140e+02°)
1.75321144263208e+06	(2.11538230327494e+01dB,1.76737303754688e+02°)
1.76540599258132e+06	(2.11536584231435e+01dB,1.76714642575086e+02°)
1.77768536233315e+06	(2.11534915221387e+01dB,1.76691824621545e+02°)
1.79005014185596e+06	(2.11533222979368e+01dB,1.76668848820204e+02°)
1.80250092522167e+06	(2.11531507182962e+01dB,1.76645714090858e+02°)
1.81503831063433e+06	(2.11529767505085e+01dB,1.76622419343064e+02°)
1.82766290045881e+06	(2.11528003614714e+01dB,1.76598963486116e+02°)
1.84037530124976e+06	(2.11526215175562e+01dB,1.76575345413589e+02°)
1.85317612378075e+06	(2.11524401846952e+01dB,1.76551564014856e+02°)
1.86606598307363e+06	(2.11522563283870e+01dB,1.76527618176589e+02°)
1.87904549842804e+06	(2.11520699135999e+01dB,1.76503506770382e+02°)
1.89211529345120e+06	(2.11518809048610e+01dB,1.76479228666584e+02°)
1.90527599608789e+06	(2.11516892661923e+01dB,1.76454782725774e+02°)
1.91852823865054e+06	(2.11514949611337e+01dB,1.76430167802577e+02°)
1.93187265784970e+06	(2.11512979526689e+01dB,1.76405382737908e+02°)
1.94530989482458e+06	(2.11510982033527e+01dB,1.76380426374344e+02°)
1.95884059517387e+06	(2.11508956751461e+01dB,1.76355297538359e+02°)
1.97246540898673e+06	(2.11506903295587e+01dB,1.76329995055684e+02°)
1.98618499087409e+06	(2.11504821275248e+01dB,1.76304517740485e+02°)
2.00000000000002e+06	(2.11502710294449e+01dB,1.76278864399166e+02°)
2.01391110011345e+06	(2.11500569951885e+01dB,1.76253033831866e+02°)
2.02791895958007e+06	(2.11498399840588e+01dB,1.76227024829338e+02°)
2.04202425141440e+06	(2.11496199548207e+01dB,1.76200836176748e+02°)
2.05622765331215e+06	(2.11493968656433e+01dB,1.76174466648246e+02°)
2.07052984768277e+06	(2.11491706741387e+01dB,1.76147915012313e+02°)
2.08493152168226e+06	(2.11489413373399e+01dB,1.76121180028628e+02°)
2.09943336724615e+06	(2.11487088116784e+01dB,1.76094260448802e+02°)
2.11403608112278e+06	(2.11484730529762e+01dB,1.76067155014792e+02°)
2.12874036490674e+06	(2.11482340164925e+01dB,1.76039862465012e+02°)
2.14354692507260e+06	(2.11479916568279e+01dB,1.76012381525052e+02°)
2.15845647300887e+06	(2.11477459279742e+01dB,1.75984710913792e+02°)
2.17346972505213e+06	(2.11474967832766e+01dB,1.75956849340277e+02°)
2.18858740252150e+06	(2.11472441754855e+01dB,1.75928795509830e+02°)
2.20381023175324e+06	(2.11469880566538e+01dB,1.75900548114772e+02°)
2.21913894413571e+06	(2.11467283782029e+01dB,1.75872105840531e+02°)
2.23457427614446e+06	(2.11464650908767e+01dB,1.75843467364060e+02°)
2.25011696937764e+06	(2.11461981447476e+01dB,1.75814631353793e+02°)
2.26576777059162e+06	(2.11459274892039e+01dB,1.75785596469598e+02°)
2.28152743173687e+06	(2.11456530729398e+01dB,1.75756361362731e+02°)
2.29739670999409e+06	(2.11453748439470e+01dB,1.75726924675791e+02°)
2.31337636781060e+06	(2.11450927495047e+01dB,1.75697285042678e+02°)
2.32946717293693e+06	(2.11448067361863e+01dB,1.75667441090081e+02°)
2.34566989846378e+06	(2.11445167498017e+01dB,1.75637391432820e+02°)
2.36198532285908e+06	(2.11442227354149e+01dB,1.75607134676881e+02°)
2.37841423000546e+06	(2.11439246373990e+01dB,1.75576669423976e+02°)
2.39495740923788e+06	(2.11436223993389e+01dB,1.75545994265356e+02°)
2.41161565538154e+06	(2.11433159639513e+01dB,1.75515107774065e+02°)
2.42838976879012e+06	(2.11430052733376e+01dB,1.75484008529516e+02°)
2.44528055538416e+06	(2.11426902686901e+01dB,1.75452695091285e+02°)
2.46228882668986e+06	(2.11423708904315e+01dB,1.75421166012920e+02°)
2.47941539987800e+06	(2.11420470781707e+01dB,1.75389419838812e+02°)
2.49666109780325e+06	(2.11417187707094e+01dB,1.75357455105692e+02°)
2.51402674904368e+06	(2.11413859059619e+01dB,1.75325270336433e+02°)
2.53151318794059e+06	(2.11410484210828e+01dB,1.75292864052309e+02°)
2.54912125463855e+06	(2.11407062522638e+01dB,1.75260234756032e+02°)
2.56685179512583e+06	(2.11403593349114e+01dB,1.75227380948627e+02°)
2.58470566127501e+06	(2.11400076035091e+01dB,1.75194301117078e+02°)
2.60268371088389e+06	(2.11396509916544e+01dB,1.75160993740443e+02°)
2.62078680771675e+06	(2.11392894320623e+01dB,1.75127457289804e+02°)
2.63901582154582e+06	(2.11389228564949e+01dB,1.75093690223612e+02°)
2.65737162819305e+06	(2.11385511958221e+01dB,1.75059690993792e+02°)
2.67585510957225e+06	(2.11381743799362e+01dB,1.75025458039550e+02°)
2.69446715373141e+06	(2.11377923377942e+01dB,1.74990989791940e+02°)
2.71320865489537e+06	(2.11374049974059e+01dB,1.74956284673822e+02°)
2.73208051350882e+06	(2.11370122857648e+01dB,1.74921341095206e+02°)
2.75108363627952e+06	(2.11366141288912e+01dB,1.74886157457821e+02°)
2.77021893622188e+06	(2.11362104518198e+01dB,1.74850732155069e+02°)
2.78948733270084e+06	(2.11358011785484e+01dB,1.74815063568909e+02°)
2.80888975147603e+06	(2.11353862320234e+01dB,1.74779150069819e+02°)
2.82842712474622e+06	(2.11349655341817e+01dB,1.74742990021361e+02°)
2.84810039119418e+06	(2.11345390058531e+01dB,1.74706581772448e+02°)
2.86791049603169e+06	(2.11341065668622e+01dB,1.74669923668071e+02°)
2.88785839104503e+06	(2.11336681359315e+01dB,1.74633014041563e+02°)
2.90794503464065e+06	(2.11332236305820e+01dB,1.74595851208426e+02°)
2.92817139189128e+06	(2.11327729673793e+01dB,1.74558433486244e+02°)
2.94853843458224e+06	(2.11323160616384e+01dB,1.74520759173151e+02°)
2.96904714125813e+06	(2.11318528275898e+01dB,1.74482826561604e+02°)
2.98969849726991e+06	(2.11313831782840e+01dB,1.74444633932207e+02°)
3.01049349482217e+06	(2.11309070255754e+01dB,1.74406179553667e+02°)
3.03143313302083e+06	(2.11304242801482e+01dB,1.74367461685829e+02°)
3.05251841792116e+06	(2.11299348515020e+01dB,1.74328478579631e+02°)
3.07375036257606e+06	(2.11294386478938e+01dB,1.74289228473998e+02°)
3.09512998708482e+06	(2.11289355763431e+01dB,1.74249709597343e+02°)
3.11665831864204e+06	(2.11284255425940e+01dB,1.74209920165988e+02°)
3.13833639158704e+06	(2.11279084511418e+01dB,1.74169858387200e+02°)
3.16016524745355e+06	(2.11273842052172e+01dB,1.74129522459150e+02°)
3.18214593501971e+06	(2.11268527067263e+01dB,1.74088910567810e+02°)
3.20427951035853e+06	(2.11263138562518e+01dB,1.74048020888455e+02°)
3.22656703688855e+06	(2.11257675530276e+01dB,1.74006851584083e+02°)
3.24900958542498e+06	(2.11252136949668e+01dB,1.73965400809993e+02°)
3.27160823423117e+06	(2.11246521785698e+01dB,1.73923666707613e+02°)
3.29436406907034e+06	(2.11240828989923e+01dB,1.73881647410593e+02°)
3.31727818325781e+06	(2.11235057499604e+01dB,1.73839341040179e+02°)
3.34035167771352e+06	(2.11229206237749e+01dB,1.73796745706710e+02°)
3.36358566101490e+06	(2.11223274112692e+01dB,1.73753859508057e+02°)
3.38698124945015e+06	(2.11217260018844e+01dB,1.73710680535716e+02°)
3.41053956707187e+06	(2.11211162834637e+01dB,1.73667206862526e+02°)
3.43426174575106e+06	(2.11204981424674e+01dB,1.73623436557951e+02°)
3.45814892523151e+06	(2.11198714637660e+01dB,1.73579367675803e+02°)
3.48220225318454e+06	(2.11192361307875e+01dB,1.73534998264927e+02°)
3.50642288526419e+06	(2.11185920252823e+01dB,1.73490326355398e+02°)
3.53081198516267e+06	(2.11179390273971e+01dB,1.73445349964623e+02°)
3.55537072466633e+06	(2.11172770159001e+01dB,1.73400067112603e+02°)
3.58010028371194e+06	(2.11166058676480e+01dB,1.73354475789789e+02°)
3.60500185044337e+06	(2.11159254581043e+01dB,1.73308573990707e+02°)
3.63007662126869e+06	(2.11152356609247e+01dB,1.73262359689462e+02°)
3.65532580091765e+06	(2.11145363481847e+01dB,1.73215830855008e+02°)
3.68075060249955e+06	(2.11138273901318e+01dB,1.73168985437367e+02°)
3.70635224756154e+06	(2.11131086554424e+01dB,1.73121821384420e+02°)
3.73213196614728e+06	(2.11123800109727e+01dB,1.73074336628133e+02°)
3.75809099685610e+06	(2.11116413217309e+01dB,1.73026529084542e+02°)
3.78423058690244e+06	(2.11108924511019e+01dB,1.72978396667473e+02°)
3.81055199217580e+06	(2.11101332605453e+01dB,1.72929937273264e+02°)
3.83705647730111e+06	(2.11093636097165e+01dB,1.72881148788377e+02°)
3.86374531569944e+06	(2.11085833563873e+01dB,1.72832029086335e+02°)
3.89061978964920e+06	(2.11077923565029e+01dB,1.72782576032278e+02°)
3.91768119034777e+06	(2.11069904640789e+01dB,1.72732787478384e+02°)
3.94493081797350e+06	(2.11061775312041e+01dB,1.72682661265371e+02°)
3.97236998174820e+06	(2.11053534080165e+01dB,1.72632195222499e+02°)
4.00000000000006e+06	(2.11045179426794e+01dB,1.72581387167550e+02°)
4.02782220022694e+06	(2.11036709813571e+01dB,1.72530234906830e+02°)
4.05583791916018e+06	(2.11028123681618e+01dB,1.72478736233631e+02°)
4.08404850282883e+06	(2.11019419452408e+01dB,1.72426888934329e+02°)
4.11245530662433e+06	(2.11010595525843e+01dB,1.72374690779230e+02°)
4.14105969536557e+06	(2.11001650280821e+01dB,1.72322139527145e+02°)
4.16986304336455e+06	(2.10992582075848e+01dB,1.72269232929957e+02°)
4.19886673449233e+06	(2.10983389246779e+01dB,1.72215968721960e+02°)
4.22807216224559e+06	(2.10974070108849e+01dB,1.72162344632043e+02°)
4.25748072981351e+06	(2.10964622954098e+01dB,1.72108358371517e+02°)
4.28709385014524e+06	(2.10955046052843e+01dB,1.72054007643253e+02°)
4.31691294601778e+06	(2.10945337654016e+01dB,1.71999290144728e+02°)
4.34693945010430e+06	(2.10935495980745e+01dB,1.71944203546740e+02°)
4.37717480504303e+06	(2.10925519236604e+01dB,1.71888745526880e+02°)
4.40762046350651e+06	(2.10915405598182e+01dB,1.71832913733045e+02°)
4.43827788827145e+06	(2.10905153221393e+01dB,1.71776705816907e+02°)
4.46914855228895e+06	(2.10894760236992e+01dB,1.71720119412640e+02°)
4.50023393875531e+06	(2.10884224750871e+01dB,1.71663152139983e+02°)
4.53153554118327e+06	(2.10873544845616e+01dB,1.71605801613376e+02°)
4.56305486347377e+06	(2.10862718577746e+01dB,1.71548065429828e+02°)
4.59479341998822e+06	(2.10851743979908e+01dB,1.71489941181091e+02°)
4.62675273562123e+06	(2.10840619058713e+01dB,1.71431426444575e+02°)
4.65893434587390e+06	(2.10829341793773e+01dB,1.71372518780347e+02°)
4.69133979692759e+06	(2.10817910141869e+01dB,1.71313215752397e+02°)
4.72397064571820e+06	(2.10806322030267e+01dB,1.71253514898332e+02°)
4.75682846001096e+06	(2.10794575360873e+01dB,1.71193413750652e+02°)
4.78991481847580e+06	(2.10782668009270e+01dB,1.71132909833745e+02°)
4.82323131076312e+06	(2.10770597823252e+01dB,1.71072000657858e+02°)
4.85677953758027e+06	(2.10758362622267e+01dB,1.71010683719158e+02°)
4.89056111076836e+06	(2.10745960199232e+01dB,1.70948956508854e+02°)
4.92457765337975e+06	(2.10733388317523e+01dB,1.70886816501126e+02°)
4.95883079975603e+06	(2.10720644713320e+01dB,1.70824261165295e+02°)
4.99332219560653e+06	(2.10707727092593e+01dB,1.70761287953759e+02°)
5.02805349808740e+06	(2.10694633133480e+01dB,1.70697894314157e+02°)
5.06302637588121e+06	(2.10681360483920e+01dB,1.70634077680348e+02°)
5.09824250927714e+06	(2.10667906761297e+01dB,1.70569835472473e+02°)
5.13370359025171e+06	(2.10654269554189e+01dB,1.70505165106092e+02°)
5.16941132255006e+06	(2.10640446419240e+01dB,1.70440063980154e+02°)
5.20536742176783e+06	(2.10626434883623e+01dB,1.70374529489156e+02°)
5.24157361543355e+06	(2.10612232441873e+01dB,1.70308559011132e+02°)
5.27803164309167e+06	(2.10597836558378e+01dB,1.70242149919807e+02°)
5.31474325638614e+06	(2.10583244664898e+01dB,1.70175299575618e+02°)
5.35171021914454e+06	(2.10568454160187e+01dB,1.70108005325795e+02°)
5.38893430746286e+06	(2.10553462411821e+01dB,1.70040264513502e+02°)
5.42641730979079e+06	(2.10538266752928e+01dB,1.69972074465856e+02°)
5.46416102701768e+06	(2.10522864484757e+01dB,1.69903432506080e+02°)
5.50216727255908e+06	(2.10507252874114e+01dB,1.69834335944554e+02°)
5.54043787244380e+06	(2.10491429152973e+01dB,1.69764782078919e+02°)
5.57897466540173e+06	(2.10475390520365e+01dB,1.69694768203210e+02°)
5.61777950295209e+06	(2.10459134139756e+01dB,1.69624291598931e+02°)
5.65685424949249e+06	(2.10442657138658e+01dB,1.69553349535166e+02°)
5.69620078238839e+06	(2.10425956609772e+01dB,1.69481939274711e+02°)
5.73582099206342e+06	(2.10409029611419e+01dB,1.69410058077191e+02°)
5.77571678209009e+06	(2.10391873162501e+01dB,1.69337703181146e+02°)
5.81589006928135e+06	(2.10374484246756e+01dB,1.69264871822200e+02°)
5.85634278378261e+06	(2.10356859811632e+01dB,1.69191561230168e+02°)
5.89707686916452e+06	(2.10338996766327e+01dB,1.69117768623192e+02°)
5.93809428251631e+06	(2.10320891982178e+01dB,1.69043491210876e+02°)
5.97939699453987e+06	(2.10302542291459e+01dB,1.68968726191438e+02°)
6.02098698964439e+06	(2.10283944488602e+01dB,1.68893470757851e+02°)
6.06286626604171e+06	(2.10265095330642e+01dB,1.68817722100978e+02°)
6.10503683584236e+06	(2.10245991531920e+01dB,1.68741477391763e+02°)
6.14750072515217e+06	(2.10226629768568e+01dB,1.68664733799363e+02°)
6.19025997416968e+06	(2.10207006678166e+01dB,1.68587488491297e+02°)
6.23331663728412e+06	(2.10187118854333e+01dB,1.68509738615676e+02°)
6.27667278317413e+06	(2.10166962852162e+01dB,1.68431481322307e+02°)
6.32033049490714e+06	(2.10146535183619e+01dB,1.68352713747932e+02°)
6.36429187003948e+06	(2.10125832320529e+01dB,1.68273433028353e+02°)
6.40855902071711e+06	(2.10104850692489e+01dB,1.68193636292649e+02°)
6.45313407377714e+06	(2.10083586682107e+01dB,1.68113320648458e+02°)
6.49801917085002e+06	(2.10062036635848e+01dB,1.68032483220957e+02°)
6.54321646846238e+06	(2.10040196852377e+01dB,1.67951121114283e+02°)
6.58872813814072e+06	(2.10018063586451e+01dB,1.67869231426668e+02°)
6.63455636651567e+06	(2.09995633050287e+01dB,1.67786811256604e+02°)
6.68070335542709e+06	(2.09972901409614e+01dB,1.67703857691155e+02°)
6.72717132202985e+06	(2.09949864786818e+01dB,1.67620367818087e+02°)
6.77396249890036e+06	(2.09926519258764e+01dB,1.67536338720143e+02°)
6.82107913414380e+06	(2.09902860851799e+01dB,1.67451767460436e+02°)
6.86852349150217e+06	(2.09878885555949e+01dB,1.67366651130217e+02°)
6.91629785046307e+06	(2.09854589300685e+01dB,1.67280986771915e+02°)
6.96440450636914e+06	(2.09829967981164e+01dB,1.67194771465487e+02°)
7.01284577052843e+06	(2.09805017435659e+01dB,1.67108002257457e+02°)
7.06162397032539e+06	(2.09779733459036e+01dB,1.67020676205686e+02°)
7.11074144933271e+06	(2.09754111798681e+01dB,1.66932790367763e+02°)
7.16020056742393e+06	(2.09728148150281e+01dB,1.66844341789452e+02°)
7.21000370088680e+06	(2.09701838159242e+01dB,1.66755327510914e+02°)
7.26015324253744e+06	(2.09675177427045e+01dB,1.66665744587690e+02°)
7.31065160183536e+06	(2.09648161497333e+01dB,1.66575590049616e+02°)
7.36150120499916e+06	(2.09620785870000e+01dB,1.66484860945457e+02°)
7.41270449512313e+06	(2.09593045990115e+01dB,1.66393554310729e+02°)
7.46426393229462e+06	(2.09564937249370e+01dB,1.66301667173947e+02°)
7.51618199371226e+06	(2.09536454994634e+01dB,1.66209196583469e+02°)
7.56846117380493e+06	(2.09507594516663e+01dB,1.66116139575404e+02°)
